
T18F0 000:035 SEGGER J-Link V4.60a Log File (0001ms, 0036ms total)
T18F0 000:035 DLL Compiled: Jan 16 2013 17:15:30 (0001ms, 0036ms total)
T18F0 000:035 Logging started @ 2015-12-11 08:24 (0001ms, 0036ms total)
T18F0 000:036 JLINK_SetWarnOutHandler(...) (0000ms, 0036ms total)
T18F0 000:036 JLINK_OpenEx(...)
Firmware: J-Link ARM-OB STM32 compiled Aug 22 2012 19:52:04
Hardware: V7.00
S/N: 20090928
Feature(s): RDI,FlashDL,FlashBP,JFlash,GDBFull  returns O.K. (0010ms, 0046ms total)
T18F0 000:046 JLINK_SetErrorOutHandler(...) (0000ms, 0046ms total)
T18F0 000:046 JLINK_ExecCommand("ProjectFile = "C:\Users\l1117\Documents\GitHub\UARTLOGGER\pca10028\arm5\JLinkSettings.ini"", ...)
                JLINK_ExecCommand("map ram 0x20000000 - 0x20001FFF", ...)  returns 0x00 (0000ms, 0000ms total)
                JLINK_AddMirrorAreaEx(Addr = 0x00000000, Size = 0x00000000) (0000ms, 0000ms total)
              Device "NRF51822" selected (256 KB flash, 8 KB RAM).  returns 0x00 (0004ms, 0050ms total)
T18F0 000:053 JLINK_ExecCommand("Device = nRF51822_xxAA", ...)
                JLINK_ExecCommand("map ram 0x20000000 - 0x20001FFF", ...)  returns 0x00 (0000ms, 0000ms total)
                JLINK_AddMirrorAreaEx(Addr = 0x00000000, Size = 0x00000000) (0000ms, 0000ms total)
              Device "NRF51822" selected (256 KB flash, 8 KB RAM).  returns 0x00 (0003ms, 0053ms total)
T18F0 000:056 JLINK_ExecCommand("DisableConnectionTimeout", ...)  returns 0x00 (0000ms, 0053ms total)
T18F0 000:056 JLINK_GetHardwareVersion()  returns 0x11170 (0000ms, 0053ms total)
T18F0 000:056 JLINK_GetDLLVersion()  returns 46001 (0000ms, 0053ms total)
T18F0 000:056 JLINK_GetFirmwareString(...) (0000ms, 0053ms total)
T18F0 000:061 JLINK_GetDLLVersion()  returns 46001 (0000ms, 0053ms total)
T18F0 000:061 JLINK_GetCompileDateTime() (0000ms, 0053ms total)
T18F0 000:063 JLINK_GetFirmwareString(...) (0000ms, 0053ms total)
T18F0 000:065 JLINK_GetHardwareVersion()  returns 0x11170 (0000ms, 0053ms total)
T18F0 000:071 JLINK_TIF_Select(JLINKARM_TIF_SWD)  returns 0x00 (0002ms, 0055ms total)
T18F0 000:073 JLINK_SetSpeed(2000) (0000ms, 0055ms total)
T18F0 000:073 JLINK_GetId() >0x108 TIF>Found SWD-DP with ID 0x0BB11477 >0x35 TIF> >0x0D TIF> >0x28 TIF> >0x0D TIF> >0x28 TIF> >0x35 TIF> >0x35 TIF> >0x0D TIF> >0x28 TIF> >0x35 TIF> >0x35 TIF> >0x35 TIF> >0x35 TIF> >0x0D TIF> >0x28 TIF> >0x0D TIF> >0x28 TIF> >0x0D TIF> >0x28 TIF> >0x35 TIF> >0x35 TIF> >0x35 TIF> >0x0D TIF> >0x28 TIF> >0x0D TIF> >0x28 TIF> >0x35 TIF> >0x35 TIF> >0x0D TIF> >0x28 TIF> >0x35 TIF> >0x35 TIF> >0x0D TIF> >0x28 TIF> >0x0D TIF> >0x28 TIF> >0x0D TIF> >0x28 TIF> >0x35 TIF>
 >0x35 TIF> >0x0D TIF> >0x28 TIF> >0x0D TIF> >0x28 TIF> >0x0D TIF> >0x28 TIF> >0x0D TIF> >0x28 TIF> >0x0D TIF> >0x28 TIF> >0x35 TIF> >0x35 TIF> >0x35 TIF> >0x0D TIF> >0x28 TIF> >0x35 TIF> >0x35 TIF> >0x0D TIF> >0x28 TIF> >0x35 TIF> >0x35 TIF>FPUnit: 4 code (BP) slots and 0 literal slots >0x0D TIF> >0x28 TIF> >0x35 TIF> >0x35 TIF> >0x0D TIF> >0x28 TIF> >0x0D TIF> >0x28 TIF> >0x0D TIF> >0x28 TIF> >0x35 TIF> >0x35 TIF> >0x0D TIF> >0x28 TIF> >0x35 TIF> >0x35 TIF> >0x0D TIF> >0x28 TIF> >0x35 TIF> >0x35 TIF>
Found Cortex-M0 r0p0, Little endian. >0x35 TIF>  returns 0x0BB11477 (0035ms, 0090ms total)
T18F0 000:108 JLINK_GetDeviceFamily()  returns 6 (0000ms, 0090ms total)
T18F0 000:109 JLINK_ReadMem (0xE00FFFF0, 0x0010 Bytes, ...) -- CPU is running -- CPU_ReadMem(16 bytes @ 0xE00FFFF0) -- Data:  0D 00 00 00 10 00 00 00 05 00 00 00 B1 00 00 00  returns 0x00 (0001ms, 0091ms total)
T18F0 000:110 JLINK_ReadMem (0xE00FFFD0, 0x0020 Bytes, ...) -- CPU is running -- CPU_ReadMem(32 bytes @ 0xE00FFFD0) -- Data:  04 00 00 00 00 00 00 00 00 00 00 00 00 00 00 00 ...  returns 0x00 (0001ms, 0092ms total)
T18F0 000:111 JLINK_ReadMem (0xE00FF000, 0x0018 Bytes, ...) -- CPU is running -- CPU_ReadMem(24 bytes @ 0xE00FF000) -- Data:  03 F0 F0 FF 03 20 F0 FF 03 30 F0 FF 00 00 00 00 ...  returns 0x00 (0001ms, 0093ms total)
T18F0 000:112 JLINK_ReadMemU32(0xE000ED00, 0x0001 Items, ...) -- CPU is running -- CPU_ReadMem(4 bytes @ 0xE000ED00) -- Data:  00 C2 0C 41  returns 0x01 (0001ms, 0094ms total)
T18F0 000:113 JLINK_SetResetType(JLINKARM_RESET_TYPE_NORMAL)  returns JLINKARM_RESET_TYPE_NORMAL (0000ms, 0094ms total)
T18F0 000:113 JLINK_Reset() -- CPU is running -- CPU_WriteMem(4 bytes @ 0xE000EDF0) -- CPU is running -- CPU_WriteMem(4 bytes @ 0xE000EDFC) >0x35 TIF> -- CPU is running -- CPU_WriteMem(4 bytes @ 0xE000ED0C) -- CPU is running -- CPU_ReadMem(4 bytes @ 0xE000EDF0) -- CPU is running -- CPU_ReadMem(4 bytes @ 0xE000EDF0) -- CPU is running -- CPU_WriteMem(4 bytes @ 0xE000EDF0) -- CPU is running -- CPU_WriteMem(4 bytes @ 0xE000EDFC) -- CPU is running -- CPU_ReadMem(4 bytes @ 0xE000EDF0)
 -- CPU_WriteMem(4 bytes @ 0xE0002000) (0021ms, 0115ms total)
T18F0 000:134 JLINK_Halt()  returns 0x00 (0000ms, 0115ms total)
T18F0 000:134 JLINK_IsHalted() -- MA0 is in flash -- Unmirror addr 0x000006D0  returns TRUE (0000ms, 0115ms total)
T18F0 000:134 JLINK_ReadMemU32(0xE000EDF0, 0x0001 Items, ...) -- CPU_ReadMem(4 bytes @ 0xE000EDF0) -- Data:  03 00 03 00  returns 0x01 (0001ms, 0116ms total)
T18F0 000:135 JLINK_WriteU32(0xE000EDF0, 0xA05F0003) -- CPU_WriteMem(4 bytes @ 0xE000EDF0) -- Invalidate MA0 status  returns 0x00 (0001ms, 0117ms total)
T18F0 000:136 JLINK_WriteU32(0xE000EDFC, 0x01000000) -- CPU_WriteMem(4 bytes @ 0xE000EDFC)  returns 0x00 (0001ms, 0118ms total)
T18F0 000:142 JLINK_GetHWStatus(...)  returns 0x00 (0000ms, 0118ms total)
T18F0 000:148 JLINK_GetNumBPUnits(Type = 0xFFFFFF00)  returns 0x04 (0000ms, 0118ms total)
T18F0 000:148 JLINK_GetNumBPUnits(Type = 0xF0)  returns 0x2000 (0000ms, 0118ms total)
T18F0 000:148 JLINK_GetNumWPUnits()  returns 0x02 (0000ms, 0118ms total)
T18F0 000:155 JLINK_GetSpeed()  returns 0x7D0 (0000ms, 0118ms total)
T18F0 000:157 JLINK_ReadMemU32(0xE000E004, 0x0001 Items, ...) -- CPU_ReadMem(4 bytes @ 0xE000E004) -- Data:  00 00 00 00  returns 0x01 (0001ms, 0119ms total)
T18F0 000:158 JLINK_Halt()  returns 0x00 (0000ms, 0119ms total)
T18F0 000:158 JLINK_IsHalted() -- MA0 is in flash -- Unmirror addr 0x000006D0  returns TRUE (0000ms, 0119ms total)
T18F0 000:163 JLINK_WriteMem(0x20000000, 0x0478 Bytes, ...) -- Data:  00 BE 0A E0 0D 78 2D 06 68 40 08 24 40 00 00 D3 ... -- CPU_WriteMem(1144 bytes @ 0x20000000)  returns 0x478 (0014ms, 0133ms total)
T18F0 000:177 JLINK_WriteReg(R0, 0x00000000)  returns 0x00 (0000ms, 0133ms total)
T18F0 000:177 JLINK_WriteReg(R1, 0x00F42400)  returns 0x00 (0000ms, 0133ms total)
T18F0 000:177 JLINK_WriteReg(R2, 0x00000001)  returns 0x00 (0000ms, 0133ms total)
T18F0 000:177 JLINK_WriteReg(R3, 0x00000000)  returns 0x00 (0000ms, 0133ms total)
T18F0 000:177 JLINK_WriteReg(R4, 0x00000000)  returns 0x00 (0000ms, 0133ms total)
T18F0 000:177 JLINK_WriteReg(R5, 0x00000000)  returns 0x00 (0000ms, 0133ms total)
T18F0 000:177 JLINK_WriteReg(R6, 0x00000000)  returns 0x00 (0000ms, 0133ms total)
T18F0 000:177 JLINK_WriteReg(R7, 0x00000000)  returns 0x00 (0000ms, 0133ms total)
T18F0 000:177 JLINK_WriteReg(R8, 0x00000000)  returns 0x00 (0000ms, 0133ms total)
T18F0 000:177 JLINK_WriteReg(R9, 0x20000474)  returns 0x00 (0000ms, 0133ms total)
T18F0 000:177 JLINK_WriteReg(R10, 0x00000000)  returns 0x00 (0000ms, 0133ms total)
T18F0 000:177 JLINK_WriteReg(R11, 0x00000000)  returns 0x00 (0000ms, 0133ms total)
T18F0 000:177 JLINK_WriteReg(R12, 0x00000000)  returns 0x00 (0000ms, 0133ms total)
T18F0 000:177 JLINK_WriteReg(R13, 0x20002000)  returns 0x00 (0000ms, 0133ms total)
T18F0 000:177 JLINK_WriteReg(R14, 0x20000001)  returns 0x00 (0000ms, 0133ms total)
T18F0 000:177 JLINK_WriteReg(R15, 0x20000028)  returns 0x00 (0000ms, 0133ms total)
T18F0 000:177 JLINK_WriteReg(XPSR, 0x01000000)  returns 0x00 (0000ms, 0133ms total)
T18F0 000:177 JLINK_WriteReg(MSP, 0x20002000)  returns 0x00 (0000ms, 0133ms total)
T18F0 000:177 JLINK_WriteReg(PSP, 0x20002000)  returns 0x00 (0000ms, 0133ms total)
T18F0 000:177 JLINK_WriteReg(CFBP, 0x00000000)  returns 0x00 (0000ms, 0133ms total)
T18F0 000:177 JLINK_SetBPEx(Addr = 0x20000000, Type = 0xFFFFFFF2) -- CPU_ReadMem(2 bytes @ 0x20000000)  returns 0x00000001 (0001ms, 0134ms total)
T18F0 000:178 JLINK_Go() -- CPU_WriteMem(2 bytes @ 0x20000000) -- Invalidate MA0 status -- CPU_WriteMem(4 bytes @ 0xE0002008) -- CPU_WriteMem(4 bytes @ 0xE000200C) -- CPU_WriteMem(4 bytes @ 0xE0002010) -- CPU_WriteMem(4 bytes @ 0xE0002014) (0006ms, 0140ms total)
T18F0 000:184 JLINK_IsHalted() -- CPU_ReadMem(2 bytes @ 0x20000000)  returns TRUE (0005ms, 0145ms total)
T18F0 000:189 JLINK_ReadReg(R15)  returns 0x20000000 (0000ms, 0140ms total)
T18F0 000:189 JLINK_ClrBPEx(BPHandle = 0x00000001)  returns 0x00 (0000ms, 0140ms total)
T18F0 000:189 JLINK_ReadReg(R0)  returns 0x00000000 (0000ms, 0140ms total)
T18F0 000:189 JLINK_WriteReg(R0, 0x00018000)  returns 0x00 (0000ms, 0140ms total)
T18F0 000:189 JLINK_WriteReg(R1, 0x00000400)  returns 0x00 (0000ms, 0140ms total)
T18F0 000:189 JLINK_WriteReg(R2, 0x000000FF)  returns 0x00 (0000ms, 0140ms total)
T18F0 000:189 JLINK_WriteReg(R3, 0x00000000)  returns 0x00 (0000ms, 0140ms total)
T18F0 000:189 JLINK_WriteReg(R4, 0x00000000)  returns 0x00 (0000ms, 0140ms total)
T18F0 000:189 JLINK_WriteReg(R5, 0x00000000)  returns 0x00 (0000ms, 0140ms total)
T18F0 000:189 JLINK_WriteReg(R6, 0x00000000)  returns 0x00 (0000ms, 0140ms total)
T18F0 000:189 JLINK_WriteReg(R7, 0x00000000)  returns 0x00 (0000ms, 0140ms total)
T18F0 000:189 JLINK_WriteReg(R8, 0x00000000)  returns 0x00 (0000ms, 0140ms total)
T18F0 000:189 JLINK_WriteReg(R9, 0x20000474)  returns 0x00 (0000ms, 0140ms total)
T18F0 000:189 JLINK_WriteReg(R10, 0x00000000)  returns 0x00 (0000ms, 0140ms total)
T18F0 000:189 JLINK_WriteReg(R11, 0x00000000)  returns 0x00 (0000ms, 0140ms total)
T18F0 000:189 JLINK_WriteReg(R12, 0x00000000)  returns 0x00 (0000ms, 0140ms total)
T18F0 000:189 JLINK_WriteReg(R13, 0x20002000)  returns 0x00 (0000ms, 0140ms total)
T18F0 000:189 JLINK_WriteReg(R14, 0x20000001)  returns 0x00 (0000ms, 0140ms total)
T18F0 000:190 JLINK_WriteReg(R15, 0x20000188)  returns 0x00 (0000ms, 0141ms total)
T18F0 000:190 JLINK_WriteReg(XPSR, 0x01000000)  returns 0x00 (0000ms, 0141ms total)
T18F0 000:190 JLINK_WriteReg(MSP, 0x20002000)  returns 0x00 (0000ms, 0141ms total)
T18F0 000:190 JLINK_WriteReg(PSP, 0x20002000)  returns 0x00 (0000ms, 0141ms total)
T18F0 000:190 JLINK_WriteReg(CFBP, 0x00000000)  returns 0x00 (0000ms, 0141ms total)
T18F0 000:190 JLINK_SetBPEx(Addr = 0x20000000, Type = 0xFFFFFFF2)  returns 0x00000002 (0000ms, 0141ms total)
T18F0 000:190 JLINK_Go() (0002ms, 0143ms total)
T18F0 000:192 JLINK_IsHalted() -- CPU_ReadMem(2 bytes @ 0x20000000)  returns TRUE (0004ms, 0147ms total)
T18F0 000:196 JLINK_ReadReg(R15)  returns 0x20000000 (0000ms, 0143ms total)
T18F0 000:196 JLINK_ClrBPEx(BPHandle = 0x00000002)  returns 0x00 (0000ms, 0143ms total)
T18F0 000:196 JLINK_ReadReg(R0)  returns 0x00000001 (0000ms, 0143ms total)
T18F0 000:196 JLINK_WriteReg(R0, 0x00018000)  returns 0x00 (0000ms, 0143ms total)
T18F0 000:196 JLINK_WriteReg(R1, 0x00000400)  returns 0x00 (0000ms, 0143ms total)
T18F0 000:196 JLINK_WriteReg(R2, 0x000000FF)  returns 0x00 (0000ms, 0143ms total)
T18F0 000:196 JLINK_WriteReg(R3, 0x00000000)  returns 0x00 (0000ms, 0143ms total)
T18F0 000:196 JLINK_WriteReg(R4, 0x00000000)  returns 0x00 (0000ms, 0143ms total)
T18F0 000:196 JLINK_WriteReg(R5, 0x00000000)  returns 0x00 (0000ms, 0143ms total)
T18F0 000:196 JLINK_WriteReg(R6, 0x00000000)  returns 0x00 (0000ms, 0143ms total)
T18F0 000:196 JLINK_WriteReg(R7, 0x00000000)  returns 0x00 (0000ms, 0143ms total)
T18F0 000:196 JLINK_WriteReg(R8, 0x00000000)  returns 0x00 (0000ms, 0143ms total)
T18F0 000:197 JLINK_WriteReg(R9, 0x20000474)  returns 0x00 (0000ms, 0143ms total)
T18F0 000:197 JLINK_WriteReg(R10, 0x00000000)  returns 0x00 (0000ms, 0143ms total)
T18F0 000:197 JLINK_WriteReg(R11, 0x00000000)  returns 0x00 (0000ms, 0143ms total)
T18F0 000:197 JLINK_WriteReg(R12, 0x00000000)  returns 0x00 (0000ms, 0143ms total)
T18F0 000:197 JLINK_WriteReg(R13, 0x20002000)  returns 0x00 (0000ms, 0143ms total)
T18F0 000:197 JLINK_WriteReg(R14, 0x20000001)  returns 0x00 (0000ms, 0143ms total)
T18F0 000:197 JLINK_WriteReg(R15, 0x20000104)  returns 0x00 (0000ms, 0143ms total)
T18F0 000:197 JLINK_WriteReg(XPSR, 0x01000000)  returns 0x00 (0000ms, 0143ms total)
T18F0 000:197 JLINK_WriteReg(MSP, 0x20002000)  returns 0x00 (0000ms, 0143ms total)
T18F0 000:197 JLINK_WriteReg(PSP, 0x20002000)  returns 0x00 (0000ms, 0143ms total)
T18F0 000:197 JLINK_WriteReg(CFBP, 0x00000000)  returns 0x00 (0000ms, 0143ms total)
T18F0 000:197 JLINK_SetBPEx(Addr = 0x20000000, Type = 0xFFFFFFF2)  returns 0x00000003 (0000ms, 0143ms total)
T18F0 000:197 JLINK_Go() (0001ms, 0144ms total)
T18F0 000:198 JLINK_IsHalted()  returns FALSE (0001ms, 0145ms total)
T18F0 000:221 JLINK_IsHalted() -- CPU_ReadMem(2 bytes @ 0x20000000)  returns TRUE (0003ms, 0147ms total)
T18F0 000:224 JLINK_ReadReg(R15)  returns 0x20000000 (0000ms, 0144ms total)
T18F0 000:224 JLINK_ClrBPEx(BPHandle = 0x00000003)  returns 0x00 (0000ms, 0144ms total)
T18F0 000:224 JLINK_ReadReg(R0)  returns 0x00000000 (0000ms, 0144ms total)
T18F0 000:225 JLINK_WriteReg(R0, 0x00018400)  returns 0x00 (0000ms, 0144ms total)
T18F0 000:225 JLINK_WriteReg(R1, 0x00000400)  returns 0x00 (0000ms, 0144ms total)
T18F0 000:225 JLINK_WriteReg(R2, 0x000000FF)  returns 0x00 (0000ms, 0144ms total)
T18F0 000:225 JLINK_WriteReg(R3, 0x00000000)  returns 0x00 (0000ms, 0144ms total)
T18F0 000:225 JLINK_WriteReg(R4, 0x00000000)  returns 0x00 (0000ms, 0144ms total)
T18F0 000:225 JLINK_WriteReg(R5, 0x00000000)  returns 0x00 (0000ms, 0144ms total)
T18F0 000:225 JLINK_WriteReg(R6, 0x00000000)  returns 0x00 (0000ms, 0144ms total)
T18F0 000:225 JLINK_WriteReg(R7, 0x00000000)  returns 0x00 (0000ms, 0144ms total)
T18F0 000:225 JLINK_WriteReg(R8, 0x00000000)  returns 0x00 (0000ms, 0144ms total)
T18F0 000:225 JLINK_WriteReg(R9, 0x20000474)  returns 0x00 (0000ms, 0144ms total)
T18F0 000:225 JLINK_WriteReg(R10, 0x00000000)  returns 0x00 (0000ms, 0144ms total)
T18F0 000:225 JLINK_WriteReg(R11, 0x00000000)  returns 0x00 (0000ms, 0144ms total)
T18F0 000:225 JLINK_WriteReg(R12, 0x00000000)  returns 0x00 (0000ms, 0144ms total)
T18F0 000:225 JLINK_WriteReg(R13, 0x20002000)  returns 0x00 (0000ms, 0144ms total)
T18F0 000:225 JLINK_WriteReg(R14, 0x20000001)  returns 0x00 (0000ms, 0144ms total)
T18F0 000:225 JLINK_WriteReg(R15, 0x20000188)  returns 0x00 (0000ms, 0144ms total)
T18F0 000:225 JLINK_WriteReg(XPSR, 0x01000000)  returns 0x00 (0000ms, 0144ms total)
T18F0 000:225 JLINK_WriteReg(MSP, 0x20002000)  returns 0x00 (0000ms, 0144ms total)
T18F0 000:225 JLINK_WriteReg(PSP, 0x20002000)  returns 0x00 (0000ms, 0144ms total)
T18F0 000:225 JLINK_WriteReg(CFBP, 0x00000000)  returns 0x00 (0000ms, 0144ms total)
T18F0 000:225 JLINK_SetBPEx(Addr = 0x20000000, Type = 0xFFFFFFF2)  returns 0x00000004 (0000ms, 0144ms total)
T18F0 000:225 JLINK_Go() (0003ms, 0147ms total)
T18F0 000:228 JLINK_IsHalted() -- CPU_ReadMem(2 bytes @ 0x20000000)  returns TRUE (0003ms, 0150ms total)
T18F0 000:231 JLINK_ReadReg(R15)  returns 0x20000000 (0000ms, 0147ms total)
T18F0 000:231 JLINK_ClrBPEx(BPHandle = 0x00000004)  returns 0x00 (0000ms, 0147ms total)
T18F0 000:231 JLINK_ReadReg(R0)  returns 0x00000001 (0000ms, 0147ms total)
T18F0 000:231 JLINK_WriteReg(R0, 0x00018400)  returns 0x00 (0000ms, 0147ms total)
T18F0 000:231 JLINK_WriteReg(R1, 0x00000400)  returns 0x00 (0000ms, 0147ms total)
T18F0 000:231 JLINK_WriteReg(R2, 0x000000FF)  returns 0x00 (0000ms, 0147ms total)
T18F0 000:231 JLINK_WriteReg(R3, 0x00000000)  returns 0x00 (0000ms, 0147ms total)
T18F0 000:231 JLINK_WriteReg(R4, 0x00000000)  returns 0x00 (0000ms, 0147ms total)
T18F0 000:231 JLINK_WriteReg(R5, 0x00000000)  returns 0x00 (0000ms, 0147ms total)
T18F0 000:231 JLINK_WriteReg(R6, 0x00000000)  returns 0x00 (0000ms, 0147ms total)
T18F0 000:231 JLINK_WriteReg(R7, 0x00000000)  returns 0x00 (0000ms, 0147ms total)
T18F0 000:231 JLINK_WriteReg(R8, 0x00000000)  returns 0x00 (0000ms, 0147ms total)
T18F0 000:231 JLINK_WriteReg(R9, 0x20000474)  returns 0x00 (0000ms, 0147ms total)
T18F0 000:231 JLINK_WriteReg(R10, 0x00000000)  returns 0x00 (0000ms, 0147ms total)
T18F0 000:231 JLINK_WriteReg(R11, 0x00000000)  returns 0x00 (0001ms, 0148ms total)
T18F0 000:232 JLINK_WriteReg(R12, 0x00000000)  returns 0x00 (0000ms, 0148ms total)
T18F0 000:232 JLINK_WriteReg(R13, 0x20002000)  returns 0x00 (0000ms, 0148ms total)
T18F0 000:232 JLINK_WriteReg(R14, 0x20000001)  returns 0x00 (0000ms, 0148ms total)
T18F0 000:232 JLINK_WriteReg(R15, 0x20000104)  returns 0x00 (0000ms, 0148ms total)
T18F0 000:232 JLINK_WriteReg(XPSR, 0x01000000)  returns 0x00 (0000ms, 0148ms total)
T18F0 000:232 JLINK_WriteReg(MSP, 0x20002000)  returns 0x00 (0000ms, 0148ms total)
T18F0 000:232 JLINK_WriteReg(PSP, 0x20002000)  returns 0x00 (0000ms, 0148ms total)
T18F0 000:232 JLINK_WriteReg(CFBP, 0x00000000)  returns 0x00 (0000ms, 0148ms total)
T18F0 000:232 JLINK_SetBPEx(Addr = 0x20000000, Type = 0xFFFFFFF2)  returns 0x00000005 (0000ms, 0148ms total)
T18F0 000:232 JLINK_Go() (0002ms, 0150ms total)
T18F0 000:234 JLINK_IsHalted()  returns FALSE (0000ms, 0150ms total)
T18F0 000:239 JLINK_IsHalted()  returns FALSE (0000ms, 0150ms total)
T18F0 000:241 JLINK_IsHalted()  returns FALSE (0000ms, 0150ms total)
T18F0 000:243 JLINK_IsHalted()  returns FALSE (0000ms, 0150ms total)
T18F0 000:245 JLINK_IsHalted()  returns FALSE (0000ms, 0150ms total)
T18F0 000:247 JLINK_IsHalted()  returns FALSE (0000ms, 0150ms total)
T18F0 000:249 JLINK_IsHalted()  returns FALSE (0000ms, 0150ms total)
T18F0 000:251 JLINK_IsHalted()  returns FALSE (0000ms, 0150ms total)
T18F0 000:253 JLINK_IsHalted()  returns FALSE (0001ms, 0151ms total)
T18F0 000:256 JLINK_IsHalted() -- CPU_ReadMem(2 bytes @ 0x20000000)  returns TRUE (0005ms, 0155ms total)
T18F0 000:261 JLINK_ReadReg(R15)  returns 0x20000000 (0000ms, 0150ms total)
T18F0 000:261 JLINK_ClrBPEx(BPHandle = 0x00000005)  returns 0x00 (0000ms, 0150ms total)
T18F0 000:261 JLINK_ReadReg(R0)  returns 0x00000000 (0000ms, 0150ms total)
T18F0 000:261 JLINK_WriteReg(R0, 0x00018800)  returns 0x00 (0000ms, 0150ms total)
T18F0 000:261 JLINK_WriteReg(R1, 0x00000400)  returns 0x00 (0000ms, 0150ms total)
T18F0 000:261 JLINK_WriteReg(R2, 0x000000FF)  returns 0x00 (0000ms, 0150ms total)
T18F0 000:261 JLINK_WriteReg(R3, 0x00000000)  returns 0x00 (0000ms, 0150ms total)
T18F0 000:261 JLINK_WriteReg(R4, 0x00000000)  returns 0x00 (0000ms, 0150ms total)
T18F0 000:261 JLINK_WriteReg(R5, 0x00000000)  returns 0x00 (0000ms, 0150ms total)
T18F0 000:261 JLINK_WriteReg(R6, 0x00000000)  returns 0x00 (0000ms, 0150ms total)
T18F0 000:261 JLINK_WriteReg(R7, 0x00000000)  returns 0x00 (0000ms, 0150ms total)
T18F0 000:261 JLINK_WriteReg(R8, 0x00000000)  returns 0x00 (0000ms, 0150ms total)
T18F0 000:261 JLINK_WriteReg(R9, 0x20000474)  returns 0x00 (0000ms, 0150ms total)
T18F0 000:261 JLINK_WriteReg(R10, 0x00000000)  returns 0x00 (0000ms, 0150ms total)
T18F0 000:261 JLINK_WriteReg(R11, 0x00000000)  returns 0x00 (0000ms, 0150ms total)
T18F0 000:261 JLINK_WriteReg(R12, 0x00000000)  returns 0x00 (0000ms, 0150ms total)
T18F0 000:261 JLINK_WriteReg(R13, 0x20002000)  returns 0x00 (0000ms, 0150ms total)
T18F0 000:261 JLINK_WriteReg(R14, 0x20000001)  returns 0x00 (0000ms, 0150ms total)
T18F0 000:261 JLINK_WriteReg(R15, 0x20000188)  returns 0x00 (0000ms, 0150ms total)
T18F0 000:261 JLINK_WriteReg(XPSR, 0x01000000)  returns 0x00 (0000ms, 0150ms total)
T18F0 000:261 JLINK_WriteReg(MSP, 0x20002000)  returns 0x00 (0000ms, 0150ms total)
T18F0 000:261 JLINK_WriteReg(PSP, 0x20002000)  returns 0x00 (0000ms, 0150ms total)
T18F0 000:261 JLINK_WriteReg(CFBP, 0x00000000)  returns 0x00 (0000ms, 0150ms total)
T18F0 000:261 JLINK_SetBPEx(Addr = 0x20000000, Type = 0xFFFFFFF2)  returns 0x00000006 (0000ms, 0150ms total)
T18F0 000:261 JLINK_Go() (0003ms, 0153ms total)
T18F0 000:264 JLINK_IsHalted() -- CPU_ReadMem(2 bytes @ 0x20000000)  returns TRUE (0004ms, 0157ms total)
T18F0 000:268 JLINK_ReadReg(R15)  returns 0x20000000 (0000ms, 0153ms total)
T18F0 000:268 JLINK_ClrBPEx(BPHandle = 0x00000006)  returns 0x00 (0000ms, 0153ms total)
T18F0 000:268 JLINK_ReadReg(R0)  returns 0x00000001 (0000ms, 0153ms total)
T18F0 000:268 JLINK_WriteReg(R0, 0x00018800)  returns 0x00 (0000ms, 0153ms total)
T18F0 000:268 JLINK_WriteReg(R1, 0x00000400)  returns 0x00 (0000ms, 0153ms total)
T18F0 000:268 JLINK_WriteReg(R2, 0x000000FF)  returns 0x00 (0000ms, 0153ms total)
T18F0 000:268 JLINK_WriteReg(R3, 0x00000000)  returns 0x00 (0000ms, 0153ms total)
T18F0 000:268 JLINK_WriteReg(R4, 0x00000000)  returns 0x00 (0000ms, 0153ms total)
T18F0 000:268 JLINK_WriteReg(R5, 0x00000000)  returns 0x00 (0000ms, 0153ms total)
T18F0 000:268 JLINK_WriteReg(R6, 0x00000000)  returns 0x00 (0000ms, 0153ms total)
T18F0 000:268 JLINK_WriteReg(R7, 0x00000000)  returns 0x00 (0000ms, 0153ms total)
T18F0 000:268 JLINK_WriteReg(R8, 0x00000000)  returns 0x00 (0000ms, 0153ms total)
T18F0 000:268 JLINK_WriteReg(R9, 0x20000474)  returns 0x00 (0000ms, 0153ms total)
T18F0 000:268 JLINK_WriteReg(R10, 0x00000000)  returns 0x00 (0000ms, 0153ms total)
T18F0 000:268 JLINK_WriteReg(R11, 0x00000000)  returns 0x00 (0000ms, 0153ms total)
T18F0 000:268 JLINK_WriteReg(R12, 0x00000000)  returns 0x00 (0000ms, 0153ms total)
T18F0 000:268 JLINK_WriteReg(R13, 0x20002000)  returns 0x00 (0000ms, 0153ms total)
T18F0 000:268 JLINK_WriteReg(R14, 0x20000001)  returns 0x00 (0000ms, 0153ms total)
T18F0 000:268 JLINK_WriteReg(R15, 0x20000104)  returns 0x00 (0000ms, 0153ms total)
T18F0 000:268 JLINK_WriteReg(XPSR, 0x01000000)  returns 0x00 (0000ms, 0153ms total)
T18F0 000:268 JLINK_WriteReg(MSP, 0x20002000)  returns 0x00 (0000ms, 0153ms total)
T18F0 000:268 JLINK_WriteReg(PSP, 0x20002000)  returns 0x00 (0000ms, 0153ms total)
T18F0 000:268 JLINK_WriteReg(CFBP, 0x00000000)  returns 0x00 (0000ms, 0153ms total)
T18F0 000:268 JLINK_SetBPEx(Addr = 0x20000000, Type = 0xFFFFFFF2)  returns 0x00000007 (0000ms, 0153ms total)
T18F0 000:268 JLINK_Go() (0002ms, 0155ms total)
T18F0 000:270 JLINK_IsHalted()  returns FALSE (0001ms, 0156ms total)
T18F0 000:274 JLINK_IsHalted()  returns FALSE (0001ms, 0156ms total)
T18F0 000:277 JLINK_IsHalted()  returns FALSE (0000ms, 0155ms total)
T18F0 000:279 JLINK_IsHalted()  returns FALSE (0000ms, 0155ms total)
T18F0 000:281 JLINK_IsHalted()  returns FALSE (0000ms, 0155ms total)
T18F0 000:283 JLINK_IsHalted()  returns FALSE (0000ms, 0155ms total)
T18F0 000:285 JLINK_IsHalted()  returns FALSE (0000ms, 0155ms total)
T18F0 000:287 JLINK_IsHalted()  returns FALSE (0001ms, 0156ms total)
T18F0 000:290 JLINK_IsHalted()  returns FALSE (0000ms, 0155ms total)
T18F0 000:292 JLINK_IsHalted() -- CPU_ReadMem(2 bytes @ 0x20000000)  returns TRUE (0004ms, 0159ms total)
T18F0 000:296 JLINK_ReadReg(R15)  returns 0x20000000 (0000ms, 0155ms total)
T18F0 000:296 JLINK_ClrBPEx(BPHandle = 0x00000007)  returns 0x00 (0000ms, 0155ms total)
T18F0 000:296 JLINK_ReadReg(R0)  returns 0x00000000 (0000ms, 0155ms total)
T18F0 000:296 JLINK_WriteReg(R0, 0x00018C00)  returns 0x00 (0000ms, 0155ms total)
T18F0 000:296 JLINK_WriteReg(R1, 0x00000400)  returns 0x00 (0000ms, 0155ms total)
T18F0 000:296 JLINK_WriteReg(R2, 0x000000FF)  returns 0x00 (0000ms, 0155ms total)
T18F0 000:296 JLINK_WriteReg(R3, 0x00000000)  returns 0x00 (0000ms, 0155ms total)
T18F0 000:296 JLINK_WriteReg(R4, 0x00000000)  returns 0x00 (0000ms, 0155ms total)
T18F0 000:296 JLINK_WriteReg(R5, 0x00000000)  returns 0x00 (0000ms, 0155ms total)
T18F0 000:296 JLINK_WriteReg(R6, 0x00000000)  returns 0x00 (0000ms, 0155ms total)
T18F0 000:296 JLINK_WriteReg(R7, 0x00000000)  returns 0x00 (0000ms, 0155ms total)
T18F0 000:296 JLINK_WriteReg(R8, 0x00000000)  returns 0x00 (0000ms, 0155ms total)
T18F0 000:296 JLINK_WriteReg(R9, 0x20000474)  returns 0x00 (0000ms, 0155ms total)
T18F0 000:296 JLINK_WriteReg(R10, 0x00000000)  returns 0x00 (0000ms, 0155ms total)
T18F0 000:296 JLINK_WriteReg(R11, 0x00000000)  returns 0x00 (0000ms, 0155ms total)
T18F0 000:296 JLINK_WriteReg(R12, 0x00000000)  returns 0x00 (0000ms, 0155ms total)
T18F0 000:296 JLINK_WriteReg(R13, 0x20002000)  returns 0x00 (0000ms, 0155ms total)
T18F0 000:296 JLINK_WriteReg(R14, 0x20000001)  returns 0x00 (0000ms, 0155ms total)
T18F0 000:296 JLINK_WriteReg(R15, 0x20000188)  returns 0x00 (0000ms, 0155ms total)
T18F0 000:296 JLINK_WriteReg(XPSR, 0x01000000)  returns 0x00 (0000ms, 0155ms total)
T18F0 000:296 JLINK_WriteReg(MSP, 0x20002000)  returns 0x00 (0000ms, 0155ms total)
T18F0 000:296 JLINK_WriteReg(PSP, 0x20002000)  returns 0x00 (0000ms, 0155ms total)
T18F0 000:296 JLINK_WriteReg(CFBP, 0x00000000)  returns 0x00 (0000ms, 0155ms total)
T18F0 000:296 JLINK_SetBPEx(Addr = 0x20000000, Type = 0xFFFFFFF2)  returns 0x00000008 (0000ms, 0155ms total)
T18F0 000:296 JLINK_Go() (0002ms, 0157ms total)
T18F0 000:298 JLINK_IsHalted() -- CPU_ReadMem(2 bytes @ 0x20000000)  returns TRUE (0005ms, 0162ms total)
T18F0 000:303 JLINK_ReadReg(R15)  returns 0x20000000 (0000ms, 0157ms total)
T18F0 000:303 JLINK_ClrBPEx(BPHandle = 0x00000008)  returns 0x00 (0000ms, 0157ms total)
T18F0 000:303 JLINK_ReadReg(R0)  returns 0x00000001 (0000ms, 0157ms total)
T18F0 000:303 JLINK_WriteReg(R0, 0x00018C00)  returns 0x00 (0000ms, 0157ms total)
T18F0 000:303 JLINK_WriteReg(R1, 0x00000400)  returns 0x00 (0000ms, 0157ms total)
T18F0 000:303 JLINK_WriteReg(R2, 0x000000FF)  returns 0x00 (0000ms, 0157ms total)
T18F0 000:303 JLINK_WriteReg(R3, 0x00000000)  returns 0x00 (0000ms, 0157ms total)
T18F0 000:303 JLINK_WriteReg(R4, 0x00000000)  returns 0x00 (0000ms, 0157ms total)
T18F0 000:303 JLINK_WriteReg(R5, 0x00000000)  returns 0x00 (0000ms, 0157ms total)
T18F0 000:303 JLINK_WriteReg(R6, 0x00000000)  returns 0x00 (0000ms, 0157ms total)
T18F0 000:303 JLINK_WriteReg(R7, 0x00000000)  returns 0x00 (0000ms, 0157ms total)
T18F0 000:303 JLINK_WriteReg(R8, 0x00000000)  returns 0x00 (0000ms, 0157ms total)
T18F0 000:303 JLINK_WriteReg(R9, 0x20000474)  returns 0x00 (0000ms, 0157ms total)
T18F0 000:303 JLINK_WriteReg(R10, 0x00000000)  returns 0x00 (0000ms, 0157ms total)
T18F0 000:303 JLINK_WriteReg(R11, 0x00000000)  returns 0x00 (0000ms, 0157ms total)
T18F0 000:303 JLINK_WriteReg(R12, 0x00000000)  returns 0x00 (0000ms, 0157ms total)
T18F0 000:303 JLINK_WriteReg(R13, 0x20002000)  returns 0x00 (0000ms, 0157ms total)
T18F0 000:303 JLINK_WriteReg(R14, 0x20000001)  returns 0x00 (0000ms, 0157ms total)
T18F0 000:303 JLINK_WriteReg(R15, 0x20000104)  returns 0x00 (0000ms, 0157ms total)
T18F0 000:303 JLINK_WriteReg(XPSR, 0x01000000)  returns 0x00 (0000ms, 0157ms total)
T18F0 000:303 JLINK_WriteReg(MSP, 0x20002000)  returns 0x00 (0000ms, 0157ms total)
T18F0 000:303 JLINK_WriteReg(PSP, 0x20002000)  returns 0x00 (0000ms, 0157ms total)
T18F0 000:303 JLINK_WriteReg(CFBP, 0x00000000)  returns 0x00 (0000ms, 0157ms total)
T18F0 000:303 JLINK_SetBPEx(Addr = 0x20000000, Type = 0xFFFFFFF2)  returns 0x00000009 (0000ms, 0157ms total)
T18F0 000:303 JLINK_Go() (0002ms, 0159ms total)
T18F0 000:305 JLINK_IsHalted()  returns FALSE (0000ms, 0159ms total)
T18F0 000:308 JLINK_IsHalted()  returns FALSE (0000ms, 0159ms total)
T18F0 000:310 JLINK_IsHalted()  returns FALSE (0001ms, 0160ms total)
T18F0 000:313 JLINK_IsHalted()  returns FALSE (0000ms, 0159ms total)
T18F0 000:315 JLINK_IsHalted()  returns FALSE (0000ms, 0159ms total)
T18F0 000:317 JLINK_IsHalted()  returns FALSE (0000ms, 0159ms total)
T18F0 000:319 JLINK_IsHalted()  returns FALSE (0000ms, 0159ms total)
T18F0 000:321 JLINK_IsHalted()  returns FALSE (0000ms, 0159ms total)
T18F0 000:323 JLINK_IsHalted()  returns FALSE (0000ms, 0159ms total)
T18F0 000:328 JLINK_IsHalted() -- CPU_ReadMem(2 bytes @ 0x20000000)  returns TRUE (0005ms, 0164ms total)
T18F0 000:333 JLINK_ReadReg(R15)  returns 0x20000000 (0000ms, 0159ms total)
T18F0 000:333 JLINK_ClrBPEx(BPHandle = 0x00000009)  returns 0x00 (0000ms, 0159ms total)
T18F0 000:333 JLINK_ReadReg(R0)  returns 0x00000000 (0000ms, 0159ms total)
T18F0 000:333 JLINK_WriteReg(R0, 0x00019000)  returns 0x00 (0000ms, 0159ms total)
T18F0 000:333 JLINK_WriteReg(R1, 0x00000400)  returns 0x00 (0000ms, 0159ms total)
T18F0 000:333 JLINK_WriteReg(R2, 0x000000FF)  returns 0x00 (0000ms, 0159ms total)
T18F0 000:333 JLINK_WriteReg(R3, 0x00000000)  returns 0x00 (0000ms, 0159ms total)
T18F0 000:333 JLINK_WriteReg(R4, 0x00000000)  returns 0x00 (0000ms, 0159ms total)
T18F0 000:333 JLINK_WriteReg(R5, 0x00000000)  returns 0x00 (0000ms, 0159ms total)
T18F0 000:333 JLINK_WriteReg(R6, 0x00000000)  returns 0x00 (0000ms, 0159ms total)
T18F0 000:333 JLINK_WriteReg(R7, 0x00000000)  returns 0x00 (0000ms, 0159ms total)
T18F0 000:333 JLINK_WriteReg(R8, 0x00000000)  returns 0x00 (0000ms, 0159ms total)
T18F0 000:333 JLINK_WriteReg(R9, 0x20000474)  returns 0x00 (0000ms, 0159ms total)
T18F0 000:333 JLINK_WriteReg(R10, 0x00000000)  returns 0x00 (0000ms, 0159ms total)
T18F0 000:333 JLINK_WriteReg(R11, 0x00000000)  returns 0x00 (0000ms, 0159ms total)
T18F0 000:333 JLINK_WriteReg(R12, 0x00000000)  returns 0x00 (0000ms, 0159ms total)
T18F0 000:333 JLINK_WriteReg(R13, 0x20002000)  returns 0x00 (0000ms, 0159ms total)
T18F0 000:333 JLINK_WriteReg(R14, 0x20000001)  returns 0x00 (0000ms, 0159ms total)
T18F0 000:333 JLINK_WriteReg(R15, 0x20000188)  returns 0x00 (0000ms, 0159ms total)
T18F0 000:333 JLINK_WriteReg(XPSR, 0x01000000)  returns 0x00 (0000ms, 0159ms total)
T18F0 000:333 JLINK_WriteReg(MSP, 0x20002000)  returns 0x00 (0000ms, 0159ms total)
T18F0 000:333 JLINK_WriteReg(PSP, 0x20002000)  returns 0x00 (0000ms, 0159ms total)
T18F0 000:333 JLINK_WriteReg(CFBP, 0x00000000)  returns 0x00 (0000ms, 0159ms total)
T18F0 000:333 JLINK_SetBPEx(Addr = 0x20000000, Type = 0xFFFFFFF2)  returns 0x0000000A (0000ms, 0159ms total)
T18F0 000:333 JLINK_Go() (0002ms, 0161ms total)
T18F0 000:335 JLINK_IsHalted() -- CPU_ReadMem(2 bytes @ 0x20000000)  returns TRUE (0005ms, 0166ms total)
T18F0 000:340 JLINK_ReadReg(R15)  returns 0x20000000 (0000ms, 0161ms total)
T18F0 000:340 JLINK_ClrBPEx(BPHandle = 0x0000000A)  returns 0x00 (0000ms, 0161ms total)
T18F0 000:340 JLINK_ReadReg(R0)  returns 0x00000001 (0000ms, 0161ms total)
T18F0 000:340 JLINK_WriteReg(R0, 0x00019000)  returns 0x00 (0000ms, 0161ms total)
T18F0 000:340 JLINK_WriteReg(R1, 0x00000400)  returns 0x00 (0000ms, 0161ms total)
T18F0 000:340 JLINK_WriteReg(R2, 0x000000FF)  returns 0x00 (0000ms, 0161ms total)
T18F0 000:340 JLINK_WriteReg(R3, 0x00000000)  returns 0x00 (0000ms, 0161ms total)
T18F0 000:340 JLINK_WriteReg(R4, 0x00000000)  returns 0x00 (0000ms, 0161ms total)
T18F0 000:340 JLINK_WriteReg(R5, 0x00000000)  returns 0x00 (0000ms, 0161ms total)
T18F0 000:340 JLINK_WriteReg(R6, 0x00000000)  returns 0x00 (0000ms, 0161ms total)
T18F0 000:340 JLINK_WriteReg(R7, 0x00000000)  returns 0x00 (0000ms, 0161ms total)
T18F0 000:340 JLINK_WriteReg(R8, 0x00000000)  returns 0x00 (0000ms, 0161ms total)
T18F0 000:340 JLINK_WriteReg(R9, 0x20000474)  returns 0x00 (0000ms, 0161ms total)
T18F0 000:340 JLINK_WriteReg(R10, 0x00000000)  returns 0x00 (0000ms, 0161ms total)
T18F0 000:340 JLINK_WriteReg(R11, 0x00000000)  returns 0x00 (0000ms, 0161ms total)
T18F0 000:340 JLINK_WriteReg(R12, 0x00000000)  returns 0x00 (0000ms, 0161ms total)
T18F0 000:340 JLINK_WriteReg(R13, 0x20002000)  returns 0x00 (0000ms, 0161ms total)
T18F0 000:340 JLINK_WriteReg(R14, 0x20000001)  returns 0x00 (0000ms, 0161ms total)
T18F0 000:340 JLINK_WriteReg(R15, 0x20000104)  returns 0x00 (0000ms, 0161ms total)
T18F0 000:340 JLINK_WriteReg(XPSR, 0x01000000)  returns 0x00 (0000ms, 0161ms total)
T18F0 000:340 JLINK_WriteReg(MSP, 0x20002000)  returns 0x00 (0000ms, 0161ms total)
T18F0 000:340 JLINK_WriteReg(PSP, 0x20002000)  returns 0x00 (0000ms, 0161ms total)
T18F0 000:340 JLINK_WriteReg(CFBP, 0x00000000)  returns 0x00 (0000ms, 0161ms total)
T18F0 000:340 JLINK_SetBPEx(Addr = 0x20000000, Type = 0xFFFFFFF2)  returns 0x0000000B (0000ms, 0161ms total)
T18F0 000:340 JLINK_Go() (0001ms, 0162ms total)
T18F0 000:341 JLINK_IsHalted()  returns FALSE (0001ms, 0163ms total)
T18F0 000:346 JLINK_IsHalted()  returns FALSE (0000ms, 0162ms total)
T18F0 000:348 JLINK_IsHalted()  returns FALSE (0000ms, 0162ms total)
T18F0 000:350 JLINK_IsHalted()  returns FALSE (0000ms, 0162ms total)
T18F0 000:352 JLINK_IsHalted()  returns FALSE (0000ms, 0162ms total)
T18F0 000:354 JLINK_IsHalted()  returns FALSE (0000ms, 0162ms total)
T18F0 000:356 JLINK_IsHalted()  returns FALSE (0000ms, 0162ms total)
T18F0 000:358 JLINK_IsHalted()  returns FALSE (0000ms, 0162ms total)
T18F0 000:360 JLINK_IsHalted()  returns FALSE (0000ms, 0162ms total)
T18F0 000:362 JLINK_IsHalted()  returns FALSE (0000ms, 0162ms total)
T18F0 000:364 JLINK_IsHalted() -- CPU_ReadMem(2 bytes @ 0x20000000)  returns TRUE (0003ms, 0165ms total)
T18F0 000:367 JLINK_ReadReg(R15)  returns 0x20000000 (0000ms, 0162ms total)
T18F0 000:367 JLINK_ClrBPEx(BPHandle = 0x0000000B)  returns 0x00 (0000ms, 0162ms total)
T18F0 000:367 JLINK_ReadReg(R0)  returns 0x00000000 (0000ms, 0162ms total)
T18F0 000:368 JLINK_WriteReg(R0, 0x00019400)  returns 0x00 (0000ms, 0162ms total)
T18F0 000:368 JLINK_WriteReg(R1, 0x00000400)  returns 0x00 (0000ms, 0162ms total)
T18F0 000:368 JLINK_WriteReg(R2, 0x000000FF)  returns 0x00 (0000ms, 0162ms total)
T18F0 000:368 JLINK_WriteReg(R3, 0x00000000)  returns 0x00 (0000ms, 0162ms total)
T18F0 000:368 JLINK_WriteReg(R4, 0x00000000)  returns 0x00 (0000ms, 0162ms total)
T18F0 000:368 JLINK_WriteReg(R5, 0x00000000)  returns 0x00 (0000ms, 0162ms total)
T18F0 000:368 JLINK_WriteReg(R6, 0x00000000)  returns 0x00 (0000ms, 0162ms total)
T18F0 000:368 JLINK_WriteReg(R7, 0x00000000)  returns 0x00 (0000ms, 0162ms total)
T18F0 000:368 JLINK_WriteReg(R8, 0x00000000)  returns 0x00 (0000ms, 0162ms total)
T18F0 000:368 JLINK_WriteReg(R9, 0x20000474)  returns 0x00 (0000ms, 0162ms total)
T18F0 000:368 JLINK_WriteReg(R10, 0x00000000)  returns 0x00 (0000ms, 0162ms total)
T18F0 000:368 JLINK_WriteReg(R11, 0x00000000)  returns 0x00 (0000ms, 0162ms total)
T18F0 000:368 JLINK_WriteReg(R12, 0x00000000)  returns 0x00 (0000ms, 0162ms total)
T18F0 000:368 JLINK_WriteReg(R13, 0x20002000)  returns 0x00 (0000ms, 0162ms total)
T18F0 000:368 JLINK_WriteReg(R14, 0x20000001)  returns 0x00 (0000ms, 0162ms total)
T18F0 000:368 JLINK_WriteReg(R15, 0x20000188)  returns 0x00 (0000ms, 0162ms total)
T18F0 000:368 JLINK_WriteReg(XPSR, 0x01000000)  returns 0x00 (0000ms, 0162ms total)
T18F0 000:368 JLINK_WriteReg(MSP, 0x20002000)  returns 0x00 (0000ms, 0162ms total)
T18F0 000:368 JLINK_WriteReg(PSP, 0x20002000)  returns 0x00 (0000ms, 0162ms total)
T18F0 000:368 JLINK_WriteReg(CFBP, 0x00000000)  returns 0x00 (0000ms, 0162ms total)
T18F0 000:368 JLINK_SetBPEx(Addr = 0x20000000, Type = 0xFFFFFFF2)  returns 0x0000000C (0000ms, 0162ms total)
T18F0 000:368 JLINK_Go() (0002ms, 0164ms total)
T18F0 000:370 JLINK_IsHalted() -- CPU_ReadMem(2 bytes @ 0x20000000)  returns TRUE (0004ms, 0168ms total)
T18F0 000:375 JLINK_ReadReg(R15)  returns 0x20000000 (0000ms, 0164ms total)
T18F0 000:375 JLINK_ClrBPEx(BPHandle = 0x0000000C)  returns 0x00 (0000ms, 0164ms total)
T18F0 000:375 JLINK_ReadReg(R0)  returns 0x00000001 (0000ms, 0164ms total)
T18F0 000:375 JLINK_WriteReg(R0, 0x00019400)  returns 0x00 (0000ms, 0164ms total)
T18F0 000:375 JLINK_WriteReg(R1, 0x00000400)  returns 0x00 (0000ms, 0164ms total)
T18F0 000:375 JLINK_WriteReg(R2, 0x000000FF)  returns 0x00 (0000ms, 0164ms total)
T18F0 000:375 JLINK_WriteReg(R3, 0x00000000)  returns 0x00 (0000ms, 0164ms total)
T18F0 000:375 JLINK_WriteReg(R4, 0x00000000)  returns 0x00 (0000ms, 0164ms total)
T18F0 000:375 JLINK_WriteReg(R5, 0x00000000)  returns 0x00 (0000ms, 0164ms total)
T18F0 000:375 JLINK_WriteReg(R6, 0x00000000)  returns 0x00 (0000ms, 0164ms total)
T18F0 000:375 JLINK_WriteReg(R7, 0x00000000)  returns 0x00 (0000ms, 0164ms total)
T18F0 000:375 JLINK_WriteReg(R8, 0x00000000)  returns 0x00 (0000ms, 0164ms total)
T18F0 000:375 JLINK_WriteReg(R9, 0x20000474)  returns 0x00 (0000ms, 0164ms total)
T18F0 000:375 JLINK_WriteReg(R10, 0x00000000)  returns 0x00 (0000ms, 0164ms total)
T18F0 000:375 JLINK_WriteReg(R11, 0x00000000)  returns 0x00 (0000ms, 0164ms total)
T18F0 000:375 JLINK_WriteReg(R12, 0x00000000)  returns 0x00 (0000ms, 0164ms total)
T18F0 000:375 JLINK_WriteReg(R13, 0x20002000)  returns 0x00 (0000ms, 0164ms total)
T18F0 000:375 JLINK_WriteReg(R14, 0x20000001)  returns 0x00 (0000ms, 0164ms total)
T18F0 000:375 JLINK_WriteReg(R15, 0x20000104)  returns 0x00 (0000ms, 0164ms total)
T18F0 000:375 JLINK_WriteReg(XPSR, 0x01000000)  returns 0x00 (0000ms, 0164ms total)
T18F0 000:375 JLINK_WriteReg(MSP, 0x20002000)  returns 0x00 (0000ms, 0164ms total)
T18F0 000:375 JLINK_WriteReg(PSP, 0x20002000)  returns 0x00 (0000ms, 0164ms total)
T18F0 000:375 JLINK_WriteReg(CFBP, 0x00000000)  returns 0x00 (0000ms, 0164ms total)
T18F0 000:375 JLINK_SetBPEx(Addr = 0x20000000, Type = 0xFFFFFFF2)  returns 0x0000000D (0000ms, 0164ms total)
T18F0 000:375 JLINK_Go() (0002ms, 0166ms total)
T18F0 000:377 JLINK_IsHalted()  returns FALSE (0001ms, 0167ms total)
T18F0 000:381 JLINK_IsHalted()  returns FALSE (0001ms, 0167ms total)
T18F0 000:384 JLINK_IsHalted()  returns FALSE (0000ms, 0166ms total)
T18F0 000:386 JLINK_IsHalted()  returns FALSE (0000ms, 0166ms total)
T18F0 000:388 JLINK_IsHalted()  returns FALSE (0000ms, 0166ms total)
T18F0 000:390 JLINK_IsHalted()  returns FALSE (0001ms, 0167ms total)
T18F0 000:393 JLINK_IsHalted()  returns FALSE (0000ms, 0166ms total)
T18F0 000:395 JLINK_IsHalted()  returns FALSE (0000ms, 0166ms total)
T18F0 000:397 JLINK_IsHalted()  returns FALSE (0000ms, 0166ms total)
T18F0 000:399 JLINK_IsHalted() -- CPU_ReadMem(2 bytes @ 0x20000000)  returns TRUE (0005ms, 0171ms total)
T18F0 000:404 JLINK_ReadReg(R15)  returns 0x20000000 (0000ms, 0166ms total)
T18F0 000:404 JLINK_ClrBPEx(BPHandle = 0x0000000D)  returns 0x00 (0000ms, 0166ms total)
T18F0 000:404 JLINK_ReadReg(R0)  returns 0x00000000 (0000ms, 0166ms total)
T18F0 000:404 JLINK_WriteReg(R0, 0x00019800)  returns 0x00 (0000ms, 0166ms total)
T18F0 000:404 JLINK_WriteReg(R1, 0x00000400)  returns 0x00 (0000ms, 0166ms total)
T18F0 000:404 JLINK_WriteReg(R2, 0x000000FF)  returns 0x00 (0000ms, 0166ms total)
T18F0 000:404 JLINK_WriteReg(R3, 0x00000000)  returns 0x00 (0000ms, 0166ms total)
T18F0 000:404 JLINK_WriteReg(R4, 0x00000000)  returns 0x00 (0000ms, 0166ms total)
T18F0 000:404 JLINK_WriteReg(R5, 0x00000000)  returns 0x00 (0000ms, 0166ms total)
T18F0 000:404 JLINK_WriteReg(R6, 0x00000000)  returns 0x00 (0000ms, 0166ms total)
T18F0 000:404 JLINK_WriteReg(R7, 0x00000000)  returns 0x00 (0000ms, 0166ms total)
T18F0 000:404 JLINK_WriteReg(R8, 0x00000000)  returns 0x00 (0000ms, 0166ms total)
T18F0 000:404 JLINK_WriteReg(R9, 0x20000474)  returns 0x00 (0000ms, 0166ms total)
T18F0 000:404 JLINK_WriteReg(R10, 0x00000000)  returns 0x00 (0000ms, 0166ms total)
T18F0 000:404 JLINK_WriteReg(R11, 0x00000000)  returns 0x00 (0000ms, 0166ms total)
T18F0 000:404 JLINK_WriteReg(R12, 0x00000000)  returns 0x00 (0000ms, 0166ms total)
T18F0 000:404 JLINK_WriteReg(R13, 0x20002000)  returns 0x00 (0000ms, 0166ms total)
T18F0 000:404 JLINK_WriteReg(R14, 0x20000001)  returns 0x00 (0000ms, 0166ms total)
T18F0 000:404 JLINK_WriteReg(R15, 0x20000188)  returns 0x00 (0000ms, 0166ms total)
T18F0 000:404 JLINK_WriteReg(XPSR, 0x01000000)  returns 0x00 (0000ms, 0166ms total)
T18F0 000:404 JLINK_WriteReg(MSP, 0x20002000)  returns 0x00 (0000ms, 0166ms total)
T18F0 000:404 JLINK_WriteReg(PSP, 0x20002000)  returns 0x00 (0000ms, 0166ms total)
T18F0 000:404 JLINK_WriteReg(CFBP, 0x00000000)  returns 0x00 (0000ms, 0166ms total)
T18F0 000:404 JLINK_SetBPEx(Addr = 0x20000000, Type = 0xFFFFFFF2)  returns 0x0000000E (0000ms, 0166ms total)
T18F0 000:404 JLINK_Go() (0003ms, 0169ms total)
T18F0 000:407 JLINK_IsHalted() -- CPU_ReadMem(2 bytes @ 0x20000000)  returns TRUE (0004ms, 0173ms total)
T18F0 000:411 JLINK_ReadReg(R15)  returns 0x20000000 (0000ms, 0169ms total)
T18F0 000:411 JLINK_ClrBPEx(BPHandle = 0x0000000E)  returns 0x00 (0000ms, 0169ms total)
T18F0 000:411 JLINK_ReadReg(R0)  returns 0x00000001 (0000ms, 0169ms total)
T18F0 000:411 JLINK_WriteReg(R0, 0x00019800)  returns 0x00 (0000ms, 0169ms total)
T18F0 000:411 JLINK_WriteReg(R1, 0x00000400)  returns 0x00 (0000ms, 0169ms total)
T18F0 000:411 JLINK_WriteReg(R2, 0x000000FF)  returns 0x00 (0000ms, 0169ms total)
T18F0 000:411 JLINK_WriteReg(R3, 0x00000000)  returns 0x00 (0000ms, 0169ms total)
T18F0 000:411 JLINK_WriteReg(R4, 0x00000000)  returns 0x00 (0000ms, 0169ms total)
T18F0 000:411 JLINK_WriteReg(R5, 0x00000000)  returns 0x00 (0000ms, 0169ms total)
T18F0 000:411 JLINK_WriteReg(R6, 0x00000000)  returns 0x00 (0000ms, 0169ms total)
T18F0 000:411 JLINK_WriteReg(R7, 0x00000000)  returns 0x00 (0000ms, 0169ms total)
T18F0 000:411 JLINK_WriteReg(R8, 0x00000000)  returns 0x00 (0000ms, 0169ms total)
T18F0 000:411 JLINK_WriteReg(R9, 0x20000474)  returns 0x00 (0000ms, 0169ms total)
T18F0 000:411 JLINK_WriteReg(R10, 0x00000000)  returns 0x00 (0000ms, 0169ms total)
T18F0 000:411 JLINK_WriteReg(R11, 0x00000000)  returns 0x00 (0000ms, 0169ms total)
T18F0 000:411 JLINK_WriteReg(R12, 0x00000000)  returns 0x00 (0000ms, 0169ms total)
T18F0 000:411 JLINK_WriteReg(R13, 0x20002000)  returns 0x00 (0000ms, 0169ms total)
T18F0 000:411 JLINK_WriteReg(R14, 0x20000001)  returns 0x00 (0000ms, 0169ms total)
T18F0 000:411 JLINK_WriteReg(R15, 0x20000104)  returns 0x00 (0000ms, 0169ms total)
T18F0 000:411 JLINK_WriteReg(XPSR, 0x01000000)  returns 0x00 (0000ms, 0169ms total)
T18F0 000:411 JLINK_WriteReg(MSP, 0x20002000)  returns 0x00 (0000ms, 0169ms total)
T18F0 000:411 JLINK_WriteReg(PSP, 0x20002000)  returns 0x00 (0000ms, 0169ms total)
T18F0 000:411 JLINK_WriteReg(CFBP, 0x00000000)  returns 0x00 (0000ms, 0169ms total)
T18F0 000:411 JLINK_SetBPEx(Addr = 0x20000000, Type = 0xFFFFFFF2)  returns 0x0000000F (0000ms, 0169ms total)
T18F0 000:411 JLINK_Go() (0002ms, 0171ms total)
T18F0 000:413 JLINK_IsHalted()  returns FALSE (0001ms, 0172ms total)
T18F0 000:416 JLINK_IsHalted()  returns FALSE (0000ms, 0171ms total)
T18F0 000:418 JLINK_IsHalted()  returns FALSE (0000ms, 0171ms total)
T18F0 000:420 JLINK_IsHalted()  returns FALSE (0000ms, 0171ms total)
T18F0 000:422 JLINK_IsHalted()  returns FALSE (0000ms, 0171ms total)
T18F0 000:424 JLINK_IsHalted()  returns FALSE (0000ms, 0171ms total)
T18F0 000:426 JLINK_IsHalted()  returns FALSE (0000ms, 0171ms total)
T18F0 000:428 JLINK_IsHalted()  returns FALSE (0000ms, 0171ms total)
T18F0 000:432 JLINK_IsHalted()  returns FALSE (0000ms, 0171ms total)
T18F0 000:434 JLINK_IsHalted()  returns FALSE (0000ms, 0171ms total)
T18F0 000:436 JLINK_IsHalted() -- CPU_ReadMem(2 bytes @ 0x20000000)  returns TRUE (0004ms, 0175ms total)
T18F0 000:440 JLINK_ReadReg(R15)  returns 0x20000000 (0000ms, 0171ms total)
T18F0 000:440 JLINK_ClrBPEx(BPHandle = 0x0000000F)  returns 0x00 (0000ms, 0171ms total)
T18F0 000:440 JLINK_ReadReg(R0)  returns 0x00000000 (0000ms, 0171ms total)
T18F0 000:440 JLINK_WriteReg(R0, 0x00019C00)  returns 0x00 (0000ms, 0171ms total)
T18F0 000:440 JLINK_WriteReg(R1, 0x00000400)  returns 0x00 (0000ms, 0171ms total)
T18F0 000:440 JLINK_WriteReg(R2, 0x000000FF)  returns 0x00 (0000ms, 0171ms total)
T18F0 000:440 JLINK_WriteReg(R3, 0x00000000)  returns 0x00 (0000ms, 0171ms total)
T18F0 000:440 JLINK_WriteReg(R4, 0x00000000)  returns 0x00 (0000ms, 0171ms total)
T18F0 000:440 JLINK_WriteReg(R5, 0x00000000)  returns 0x00 (0000ms, 0171ms total)
T18F0 000:440 JLINK_WriteReg(R6, 0x00000000)  returns 0x00 (0000ms, 0171ms total)
T18F0 000:440 JLINK_WriteReg(R7, 0x00000000)  returns 0x00 (0000ms, 0171ms total)
T18F0 000:440 JLINK_WriteReg(R8, 0x00000000)  returns 0x00 (0000ms, 0171ms total)
T18F0 000:440 JLINK_WriteReg(R9, 0x20000474)  returns 0x00 (0000ms, 0171ms total)
T18F0 000:440 JLINK_WriteReg(R10, 0x00000000)  returns 0x00 (0000ms, 0171ms total)
T18F0 000:440 JLINK_WriteReg(R11, 0x00000000)  returns 0x00 (0000ms, 0171ms total)
T18F0 000:440 JLINK_WriteReg(R12, 0x00000000)  returns 0x00 (0000ms, 0171ms total)
T18F0 000:440 JLINK_WriteReg(R13, 0x20002000)  returns 0x00 (0000ms, 0171ms total)
T18F0 000:440 JLINK_WriteReg(R14, 0x20000001)  returns 0x00 (0000ms, 0171ms total)
T18F0 000:440 JLINK_WriteReg(R15, 0x20000188)  returns 0x00 (0000ms, 0171ms total)
T18F0 000:440 JLINK_WriteReg(XPSR, 0x01000000)  returns 0x00 (0000ms, 0171ms total)
T18F0 000:440 JLINK_WriteReg(MSP, 0x20002000)  returns 0x00 (0000ms, 0171ms total)
T18F0 000:440 JLINK_WriteReg(PSP, 0x20002000)  returns 0x00 (0000ms, 0171ms total)
T18F0 000:440 JLINK_WriteReg(CFBP, 0x00000000)  returns 0x00 (0000ms, 0171ms total)
T18F0 000:440 JLINK_SetBPEx(Addr = 0x20000000, Type = 0xFFFFFFF2)  returns 0x00000010 (0000ms, 0171ms total)
T18F0 000:440 JLINK_Go() (0003ms, 0174ms total)
T18F0 000:443 JLINK_IsHalted() -- CPU_ReadMem(2 bytes @ 0x20000000)  returns TRUE (0004ms, 0178ms total)
T18F0 000:447 JLINK_ReadReg(R15)  returns 0x20000000 (0000ms, 0174ms total)
T18F0 000:447 JLINK_ClrBPEx(BPHandle = 0x00000010)  returns 0x00 (0000ms, 0174ms total)
T18F0 000:447 JLINK_ReadReg(R0)  returns 0x00000001 (0000ms, 0174ms total)
T18F0 000:447 JLINK_WriteReg(R0, 0x00019C00)  returns 0x00 (0000ms, 0174ms total)
T18F0 000:447 JLINK_WriteReg(R1, 0x00000400)  returns 0x00 (0000ms, 0174ms total)
T18F0 000:447 JLINK_WriteReg(R2, 0x000000FF)  returns 0x00 (0000ms, 0174ms total)
T18F0 000:447 JLINK_WriteReg(R3, 0x00000000)  returns 0x00 (0000ms, 0174ms total)
T18F0 000:447 JLINK_WriteReg(R4, 0x00000000)  returns 0x00 (0000ms, 0174ms total)
T18F0 000:447 JLINK_WriteReg(R5, 0x00000000)  returns 0x00 (0000ms, 0174ms total)
T18F0 000:447 JLINK_WriteReg(R6, 0x00000000)  returns 0x00 (0000ms, 0174ms total)
T18F0 000:447 JLINK_WriteReg(R7, 0x00000000)  returns 0x00 (0000ms, 0174ms total)
T18F0 000:447 JLINK_WriteReg(R8, 0x00000000)  returns 0x00 (0000ms, 0174ms total)
T18F0 000:447 JLINK_WriteReg(R9, 0x20000474)  returns 0x00 (0000ms, 0174ms total)
T18F0 000:447 JLINK_WriteReg(R10, 0x00000000)  returns 0x00 (0000ms, 0174ms total)
T18F0 000:447 JLINK_WriteReg(R11, 0x00000000)  returns 0x00 (0000ms, 0174ms total)
T18F0 000:447 JLINK_WriteReg(R12, 0x00000000)  returns 0x00 (0000ms, 0174ms total)
T18F0 000:447 JLINK_WriteReg(R13, 0x20002000)  returns 0x00 (0000ms, 0174ms total)
T18F0 000:447 JLINK_WriteReg(R14, 0x20000001)  returns 0x00 (0000ms, 0174ms total)
T18F0 000:447 JLINK_WriteReg(R15, 0x20000104)  returns 0x00 (0000ms, 0174ms total)
T18F0 000:447 JLINK_WriteReg(XPSR, 0x01000000)  returns 0x00 (0000ms, 0174ms total)
T18F0 000:447 JLINK_WriteReg(MSP, 0x20002000)  returns 0x00 (0000ms, 0174ms total)
T18F0 000:447 JLINK_WriteReg(PSP, 0x20002000)  returns 0x00 (0000ms, 0174ms total)
T18F0 000:447 JLINK_WriteReg(CFBP, 0x00000000)  returns 0x00 (0000ms, 0174ms total)
T18F0 000:447 JLINK_SetBPEx(Addr = 0x20000000, Type = 0xFFFFFFF2)  returns 0x00000011 (0000ms, 0174ms total)
T18F0 000:447 JLINK_Go() (0002ms, 0176ms total)
T18F0 000:449 JLINK_IsHalted()  returns FALSE (0001ms, 0177ms total)
T18F0 000:454 JLINK_IsHalted()  returns FALSE (0000ms, 0176ms total)
T18F0 000:456 JLINK_IsHalted()  returns FALSE (0000ms, 0176ms total)
T18F0 000:458 JLINK_IsHalted()  returns FALSE (0001ms, 0177ms total)
T18F0 000:461 JLINK_IsHalted()  returns FALSE (0000ms, 0176ms total)
T18F0 000:463 JLINK_IsHalted()  returns FALSE (0000ms, 0176ms total)
T18F0 000:465 JLINK_IsHalted()  returns FALSE (0000ms, 0176ms total)
T18F0 000:468 JLINK_IsHalted()  returns FALSE (0000ms, 0176ms total)
T18F0 000:470 JLINK_IsHalted()  returns FALSE (0000ms, 0176ms total)
T18F0 000:472 JLINK_IsHalted() -- CPU_ReadMem(2 bytes @ 0x20000000)  returns TRUE (0004ms, 0180ms total)
T18F0 000:476 JLINK_ReadReg(R15)  returns 0x20000000 (0000ms, 0176ms total)
T18F0 000:476 JLINK_ClrBPEx(BPHandle = 0x00000011)  returns 0x00 (0000ms, 0176ms total)
T18F0 000:476 JLINK_ReadReg(R0)  returns 0x00000000 (0000ms, 0176ms total)
T18F0 000:476 JLINK_WriteReg(R0, 0x0001A000)  returns 0x00 (0000ms, 0176ms total)
T18F0 000:476 JLINK_WriteReg(R1, 0x00000400)  returns 0x00 (0000ms, 0176ms total)
T18F0 000:476 JLINK_WriteReg(R2, 0x000000FF)  returns 0x00 (0000ms, 0176ms total)
T18F0 000:476 JLINK_WriteReg(R3, 0x00000000)  returns 0x00 (0000ms, 0176ms total)
T18F0 000:476 JLINK_WriteReg(R4, 0x00000000)  returns 0x00 (0000ms, 0176ms total)
T18F0 000:476 JLINK_WriteReg(R5, 0x00000000)  returns 0x00 (0000ms, 0176ms total)
T18F0 000:476 JLINK_WriteReg(R6, 0x00000000)  returns 0x00 (0000ms, 0176ms total)
T18F0 000:476 JLINK_WriteReg(R7, 0x00000000)  returns 0x00 (0000ms, 0176ms total)
T18F0 000:476 JLINK_WriteReg(R8, 0x00000000)  returns 0x00 (0000ms, 0176ms total)
T18F0 000:476 JLINK_WriteReg(R9, 0x20000474)  returns 0x00 (0000ms, 0176ms total)
T18F0 000:476 JLINK_WriteReg(R10, 0x00000000)  returns 0x00 (0000ms, 0176ms total)
T18F0 000:476 JLINK_WriteReg(R11, 0x00000000)  returns 0x00 (0000ms, 0176ms total)
T18F0 000:476 JLINK_WriteReg(R12, 0x00000000)  returns 0x00 (0000ms, 0176ms total)
T18F0 000:476 JLINK_WriteReg(R13, 0x20002000)  returns 0x00 (0000ms, 0176ms total)
T18F0 000:476 JLINK_WriteReg(R14, 0x20000001)  returns 0x00 (0000ms, 0176ms total)
T18F0 000:476 JLINK_WriteReg(R15, 0x20000188)  returns 0x00 (0000ms, 0176ms total)
T18F0 000:476 JLINK_WriteReg(XPSR, 0x01000000)  returns 0x00 (0000ms, 0176ms total)
T18F0 000:476 JLINK_WriteReg(MSP, 0x20002000)  returns 0x00 (0000ms, 0176ms total)
T18F0 000:476 JLINK_WriteReg(PSP, 0x20002000)  returns 0x00 (0000ms, 0176ms total)
T18F0 000:476 JLINK_WriteReg(CFBP, 0x00000000)  returns 0x00 (0000ms, 0176ms total)
T18F0 000:476 JLINK_SetBPEx(Addr = 0x20000000, Type = 0xFFFFFFF2)  returns 0x00000012 (0000ms, 0176ms total)
T18F0 000:476 JLINK_Go() (0003ms, 0179ms total)
T18F0 000:479 JLINK_IsHalted() -- CPU_ReadMem(2 bytes @ 0x20000000)  returns TRUE (0004ms, 0183ms total)
T18F0 000:483 JLINK_ReadReg(R15)  returns 0x20000000 (0000ms, 0179ms total)
T18F0 000:483 JLINK_ClrBPEx(BPHandle = 0x00000012)  returns 0x00 (0000ms, 0179ms total)
T18F0 000:483 JLINK_ReadReg(R0)  returns 0x00000001 (0000ms, 0179ms total)
T18F0 000:483 JLINK_WriteReg(R0, 0x0001A000)  returns 0x00 (0000ms, 0179ms total)
